  can0       19A   [4]  29 0D 00 20
  can0       1BA   [4]  DD D1 1D DD
  can0       2AA   [8]  FE 07 00 00 FE 07 A4 07
  can0       29A   [8]  94 07 96 07 94 07 94 07
  can0       29B   [8]  08 00 08 00 94 07 92 07
  can0       2AB   [8]  B4 03 3C 04 00 00 00 00
  can0       444   [8]  13 03 FE 07 05 81 00 00
  can0       2AB   [8]  B4 03 3A 04 00 00 00 00
  can0       29A   [8]  94 07 94 07 94 07 92 07
  can0  18FEF700   [8]  FF FF FF FF FF FF 0A 01
  can0       29A   [8]  96 07 96 07 96 07 94 07
  can0       1AA   [2]  81 01
  can0  18FEFC17   [8]  FF 00 FF FF FF FF FF FF
  can0       29A   [8]  94 07 94 07 94 07 92 07
  can0       2AA   [8]  FE 07 00 00 FE 07 A2 07
  can0       29A   [8]  96 07 96 07 94 07 94 07
  can0       2AA   [8]  FE 07 00 00 FE 07 A2 07
  can0       2AB   [8]  B4 03 3A 04 00 00 00 00
  can0       2AA   [8]  FE 07 00 00 FE 07 A4 07
  can0       444   [8]  13 03 FE 07 05 81 00 00
  can0       29A   [8]  94 07 94 07 92 07 92 07
  can0       2AA   [8]  FE 07 00 00 FE 07 A2 07
  can0       29A   [8]  94 07 96 07 94 07 94 07
  can0       2AA   [8]  FE 07 00 00 FE 07 A4 07
  can0  18FEEE00   [1]  A2
  can0       2AA   [8]  FE 07 00 00 FE 07 A2 07
  can0       19A   [4]  29 0D 00 20
  can0       1BA   [4]  DD D1 1D DD
  can0       2AA   [8]  FE 07 00 00 FE 07 A4 07
  can0       29A   [8]  94 07 96 07 94 07 94 07
  can0       29B   [8]  08 00 08 00 94 07 92 07
  can0       444   [8]  13 03 FE 07 05 81 00 00
  can0       29A   [8]  94 07 94 07 92 07 92 07
  can0       2AB   [8]  B4 03 3C 04 00 00 00 00
  can0  18FEE500   [8]  98 0D 00 00 FF FF FF FF
  can0       29A   [8]  96 07 96 07 96 07 94 07
  can0       1AA   [2]  81 01
  can0       2AA   [8]  FE 07 00 00 FE 07 A6 07
  can0       29A   [8]  94 07 94 07 94 07 92 07
  can0       2AA   [8]  FE 07 00 00 FE 07 A4 07
  can0       29A   [8]  96 07 96 07 96 07 94 07
  can0       2AA   [8]  FE 07 00 00 FE 07 A4 07
  can0       2AB   [8]  B4 03 3A 04 00 00 00 00
  can0       444   [8]  13 03 FE 07 05 81 00 00
  can0       29A   [8]  94 07 96 07 94 07 94 07
  can0       29A   [8]  96 07 96 07 96 07 94 07
  can0       2AA   [8]  FE 07 00 00 FE 07 A6 07
  can0  18FEF700   [8]  FF FF FF FF FF FF 0A 01
  can0       29A   [8]  96 07 96 07 94 07 94 07
  can0       2AA   [8]  FE 07 00 00 FE 07 A4 07
  can0       19A   [4]  29 0D 00 20
  can0       1BA   [4]  DD D1 1D DD
  can0       2AA   [8]  FE 07 00 00 FE 07 A6 07
  can0       29A   [8]  96 07 96 07 94 07 94 07
  can0       29B   [8]  08 00 08 00 94 07 92 07
  can0       2AA   [8]  FE 07 00 00 FE 07 A4 07
  can0       444   [8]  13 03 FE 07 05 81 00 00
  can0       29A   [8]  96 07 98 07 96 07 96 07
  can0       2AA   [8]  FE 07 00 00 FE 07 A6 07
  can0       29A   [8]  94 07 96 07 94 07 94 07
  can0       19A   [4]  29 0D 00 00
  can0       1BA   [4]  1D D1 11 11
  can0       2AA   [8]  FE 07 00 00 FE 07 AC 07
  can0  18FEEE00   [1]  A2
  can0       29A   [8]  3A 00 38 00 A8 07 3A 00
  can0       1AA   [2]  81 01
  can0       2AA   [8]  FE 07 00 00 FE 07 B4 07
  can0       29A   [8]  36 00 36 00 A0 07 34 00
  can0       29A   [8]  34 00 32 00 A8 07 32 00
  can0       2AA   [8]  FE 07 00 00 FE 07 B4 07
  can0       2AB   [8]  BC 03 3A 04 00 00 00 00
  can0       2AB   [8]  BA 03 3C 04 00 00 00 00
  can0       444   [8]  13 03 FE 07 05 81 00 00
  can0       29A   [8]  32 00 30 00 A4 07 30 00
  can0       2AA   [8]  FE 07 00 00 FE 07 B2 07
  can0       29A   [8]  30 00 2E 00 A4 07 2E 00
  can0       2AA   [8]  FE 07 00 00 FE 07 B4 07
  can0  18FEE500   [8]  98 0D 00 00 FF FF FF FF
  can0       29A   [8]  2E 00 2C 00 A6 07 2C 00
  can0       2AA   [8]  FE 07 00 00 FE 07 B0 07
  can0       29A   [8]  2C 00 2C 00 A4 07 2A 00
  can0       2AA   [8]  FE 07 00 00 FE 07 B6 07
  can0       29A   [8]  2C 00 2C 00 A4 07 2A 00
  can0       29B   [8]  08 00 08 00 2A 00 9C 07
  can0       29A   [8]  2C 00 2A 00 A8 07 28 00
  can0       2AA   [8]  FE 07 00 00 FE 07 B4 07
  can0       444   [8]  13 03 FE 07 05 81 00 00
  can0       29A   [8]  2A 00 28 00 A6 07 28 00
  can0       2AB   [8]  BC 03 3A 04 00 00 00 00
  can0       29A   [8]  28 00 28 00 A4 07 26 00
  can0       19A   [4]  29 0D 00 00
  can0       1BA   [4]  1D D1 11 11
  can0       2AA   [8]  FE 07 00 00 FE 07 B2 07
  can0  18FEF700   [8]  FF FF FF FF FF FF 0C 01
  can0       29A   [8]  28 00 26 00 A2 07 24 00
  can0       1AA   [2]  81 01
  can0       2AA   [8]  FE 07 00 00 FE 07 B6 07
  can0       29A   [8]  26 00 26 00 A2 07 24 00
  can0       2AA   [8]  FE 07 00 00 FE 07 B0 07
  can0       29B   [8]  08 00 08 00 22 00 A4 07
  can0       2AB   [8]  BA 03 3C 04 00 00 00 00
  can0       2AA   [8]  FE 07 00 00 FE 07 B0 07
  can0       2AA   [8]  FE 07 00 00 FE 07 BA 07
  can0       444   [8]  13 03 FE 07 05 81 00 00
  can0       29A   [8]  26 00 24 00 A8 07 22 00
  can0       2AA   [8]  FE 07 00 00 FE 07 B4 07
  can0       29A   [8]  24 00 24 00 A6 07 22 00
  can0       2AA   [8]  FE 07 00 00 FE 07 B6 07
  can0  18FEEE00   [1]  A2
  can0       29B   [8]  08 00 08 00 20 00 A6 07
  can0       2AA   [8]  FE 07 00 00 FE 07 B0 07
  can0       29A   [8]  24 00 22 00 A6 07 20 00
  can0       2AA   [8]  FE 07 00 00 FE 07 AE 07
  can0       29A   [8]  24 00 22 00 A6 07 20 00
  can0       29B   [8]  08 00 08 00 20 00 A6 07
  can0       29A   [8]  22 00 22 00 A2 07 20 00
  can0       444   [8]  13 03 FE 07 05 81 00 00
  can0       2AA   [8]  FE 07 00 00 FE 07 B8 07
  can0       29A   [8]  22 00 22 00 A0 07 20 00
  can0       2AA   [8]  FE 07 00 00 FE 07 B6 07
  can0       29A   [8]  22 00 20 00 A2 07 1E 00
  can0       19A   [4]  29 0D 00 00
  can0       1BA   [4]  1D D1 11 11
  can0       2AA   [8]  FE 07 00 00 FE 07 B4 07
  can0  18FEE500   [8]  98 0D 00 00 FF FF FF FF
  can0       29A   [8]  22 00 20 00 A8 07 1E 00
  can0       1AA   [2]  81 01
  can0       2AA   [8]  FE 07 00 00 FE 07 B0 07
  can0       29A   [8]  20 00 20 00 A6 07 1E 00
  can0       2AA   [8]  FE 07 00 00 FE 07 B2 07
  can0       29A   [8]  20 00 20 00 AA 07 1E 00
  can0       2AA   [8]  FE 07 00 00 FE 07 B2 07
  can0       2AB   [8]  BA 03 3A 04 00 00 00 00
  can0       444   [8]  13 03 FE 07 05 81 00 00
  can0       2AA   [8]  FE 07 00 00 FE 07 B8 07
  can0       29A   [8]  20 00 1E 00 A4 07 1C 00
  can0       2AA   [8]  FE 07 00 00 FE 07 B2 07
  can0       29A   [8]  20 00 1E 00 A6 07 1C 00
  can0  18FEF700   [8]  FF FF FF FF FF FF 0C 01
  can0       29A   [8]  1E 00 1E 00 A6 07 1C 00
  can0       2AA   [8]  FE 07 00 00 FE 07 AE 07
  can0       29A   [8]  1E 00 1E 00 A8 07 1C 00
  can0       2AA   [8]  FE 07 00 00 FE 07 B2 07
  can0       29A   [8]  1E 00 1E 00 A8 07 1C 00
  can0       29B   [8]  08 00 08 00 1A 00 A2 07
  can0       29A   [8]  1E 00 1E 00 A6 07 1A 00
  can0       444   [8]  13 03 FE 07 05 81 00 00
  can0       2AA   [8]  FE 07 00 00 FE 07 B6 07
  can0       29A   [8]  1E 00 1C 00 A8 07 1A 00
  can0       2AB   [8]  BC 03 3A 04 00 00 00 00
  can0       29A   [8]  1E 00 1C 00 9E 07 1A 00
  can0       19A   [4]  29 0D 00 00
  can0       1BA   [4]  1D D1 11 11
  can0       2AA   [8]  FE 07 00 00 FE 07 B2 07
  can0  18FEEE00   [1]  A2
  can0       29A   [8]  1C 00 1C 00 A2 07 1A 00
  can0       1AA   [2]  81 01
  can0       2AA   [8]  FE 07 00 00 FE 07 B4 07
  can0       29A   [8]  1C 00 1C 00 A6 07 1A 00
  can0       2AA   [8]  FE 07 00 00 FE 07 AE 07
  can0       29A   [8]  1C 00 1C 00 A4 07 1A 00
  can0       2AA   [8]  FE 07 00 00 FE 07 AE 07
  can0       2AB   [8]  BA 03 3A 04 00 00 00 00
  can0       444   [8]  13 03 FE 07 05 81 00 00
  can0       2AA   [8]  FE 07 00 00 FE 07 B8 07
  can0       19A   [4]  29 0D 00 20
  can0       1BA   [4]  DD D1 1D DD
  can0       29A   [8]  84 07 86 07 86 07 82 07
  can0       2AA   [8]  FE 07 00 00 FE 07 98 07
  can0       29A   [8]  8A 07 8C 07 8C 07 8A 07
  can0       2AA   [8]  FE 07 00 00 FE 07 9E 07
  can0  18FEE500   [8]  98 0D 00 00 FF FF FF FF
  can0       29A   [8]  90 07 90 07 90 07 8E 07
  can0       2AA   [8]  FE 07 00 00 FE 07 A0 07
  can0       29A   [8]  92 07 94 07 92 07 92 07
  can0       2AA   [8]  FE 07 00 00 FE 07 A2 07
  can0       29A   [8]  92 07 94 07 92 07 92 07
  can0       29B   [8]  08 00 08 00 92 07 90 07
  can0       29A   [8]  9A 07 9A 07 94 07 92 07
  can0       2AA   [8]  FE 07 00 00 FE 07 A4 07
  can0       444   [8]  13 03 FE 07 05 81 00 00
  can0       29A   [8]  94 07 96 07 94 07 94 07
  can0       29A   [8]  92 07 94 07 92 07 92 07
  can0  18FEF700   [8]  FF FF FF FF FF FF 0A 01
  can0       29A   [8]  96 07 96 07 94 07 94 07
  can0       1AA   [2]  81 01
  can0       2AB   [8]  B4 03 3C 04 00 00 00 00
  can0       29A   [8]  94 07 96 07 94 07 94 07
  can0       2AB   [8]  B4 03 3A 04 00 00 00 00
  can0       29A   [8]  96 07 96 07 96 07 94 07
  can0       2AA   [8]  FE 07 00 00 FE 07 A4 07
  can0       2AB   [8]  B4 03 3A 04 00 00 00 00
  can0       2AA   [8]  FE 07 00 00 FE 07 A6 07
  can0       444   [8]  13 03 FE 07 05 81 00 00
  can0       19A   [4]  29 0D 00 20
  can0       1BA   [4]  DD D1 1D DD
  can0       2AA   [8]  FE 07 00 00 FE 07 A4 07
  can0       29A   [8]  96 07 98 07 96 07 96 07
  can0       2AA   [8]  FE 07 00 00 FE 07 A6 07
  can0  18FEEE00   [1]  A2
  can0       29A   [8]  96 07 96 07 96 07 94 07
  can0       2AA   [8]  FE 07 00 00 FE 07 A4 07
  can0       29A   [8]  96 07 98 07 96 07 96 07
  can0       2AA   [8]  FE 07 00 00 FE 07 A6 07
  can0       29A   [8]  96 07 98 07 96 07 96 07
  can0       29B   [8]  08 00 08 00 96 07 94 07
  can0       29A   [8]  96 07 96 07 96 07 94 07
  can0       444   [8]  13 03 FE 07 05 81 00 00
  can0       2AB   [8]  B6 03 3E 04 00 00 00 00
  can0       2AA   [8]  FE 07 00 00 FE 07 A4 07
  can0       29A   [8]  94 07 96 07 94 07 94 07
  can0  18FEE500   [8]  98 0D 00 00 FF FF FF FF
  can0       29A   [8]  96 07 98 07 96 07 96 07
  can0       1AA   [2]  81 01
  can0       2AA   [8]  FE 07 00 00 FE 07 A6 07
  can0       29A   [8]  96 07 96 07 96 07 94 07
  can0       2AA   [8]  FE 07 00 00 FE 07 A4 07
  can0       2AB   [8]  B4 03 3A 04 00 00 00 00
  can0       2AA   [8]  FE 07 00 00 FE 07 A4 07
  can0       2AA   [8]  FE 07 00 00 FE 07 AA 07
  can0       444   [8]  13 03 FE 07 05 81 00 00
  can0       19A   [4]  29 0D 00 20
  can0       1BA   [4]  DD D1 1D DD
  can0       29A   [8]  96 07 96 07 96 07 96 07
  can0       2AA   [8]  FE 07 00 00 FE 07 A4 07
  can0       29A   [8]  96 07 98 07 96 07 96 07
  can0       2AA   [8]  FE 07 00 00 FE 07 A6 07
  can0  18FEF700   [8]  FF FF FF FF FF FF 0A 01
  can0       29A   [8]  96 07 96 07 96 07 94 07
  can0       2AA   [8]  FE 07 00 00 FE 07 A4 07
  can0       29A   [8]  96 07 98 07 96 07 96 07
  can0       2AB   [8]  B4 03 3A 04 00 00 00 00
  can0       29A   [8]  96 07 98 07 96 07 96 07
  can0       29B   [8]  08 00 08 00 96 07 94 07
  can0       29A   [8]  9A 07 9A 07 96 07 94 07
  can0       2AB   [8]  B4 03 3C 04 00 00 00 00
  can0       444   [8]  13 03 FE 07 05 81 00 00
  can0       29A   [8]  96 07 96 07 94 07 94 07
  can0       2AA   [8]  FE 07 00 00 FE 07 A6 07
  can0       29A   [8]  96 07 96 07 96 07 94 07
  can0       2AA   [8]  FE 07 00 00 FE 07 A4 07
  can0  18FEEE00   [1]  A2
  can0       29A   [8]  96 07 98 07 96 07 96 07
  can0       1AA   [2]  81 01
  can0       29A   [8]  94 07 96 07 94 07 94 07
  can0       29A   [8]  96 07 96 07 96 07 96 07
  can0       2AA   [8]  FE 07 00 00 FE 07 A4 07
  can0       2AB   [8]  B4 03 3A 04 00 00 00 00
  can0       444   [8]  13 03 FE 07 05 81 00 00
  can0       19A   [4]  29 0D 00 20
  can0       1BA   [4]  DD D1 1D DD
  can0       29A   [8]  96 07 96 07 96 07 94 07
  can0       2AA   [8]  FE 07 00 00 FE 07 A2 07
  can0       2AA   [8]  FE 07 00 00 FE 07 A4 07
  can0  18FEE500   [8]  98 0D 00 00 FF FF FF FF
  can0       29A   [8]  96 07 96 07 96 07 96 07
  can0       2AA   [8]  FE 07 00 00 FE 07 A2 07
  can0       19A   [4]  29 0D 00 00
  can0       1BA   [4]  1D D1 11 11
  can0       29A   [8]  3C 00 3C 00 A6 07 3C 00
  can0       2AA   [8]  FE 07 00 00 FE 07 B0 07
  can0       29A   [8]  3C 00 3C 00 A6 07 3C 00
  can0       29B   [8]  08 00 08 00 3C 00 A4 07
  can0       29A   [8]  38 00 38 00 A8 07 38 00
  can0       444   [8]  13 03 FE 07 05 81 00 00
  can0       29A   [8]  36 00 34 00 A6 07 34 00
  can0       2AA   [8]  FE 07 00 00 FE 07 B2 07
  can0       29A   [8]  34 00 32 00 A4 07 32 00
  can0  18FEF700   [8]  FF FF FF FF FF FF 0C 01
  can0       29A   [8]  32 00 30 00 A4 07 2E 00
  can0       1AA   [2]  81 01
  can0       2AA   [8]  FE 07 00 00 FE 07 B6 07
  can0       29A   [8]  30 00 2E 00 9E 07 2C 00
  can0       2AA   [8]  FE 07 00 00 FE 07 B4 07
  can0       29A   [8]  2E 00 2C 00 A2 07 2A 00
  can0       2AA   [8]  FE 07 00 00 FE 07 B4 07
  can0       2AB   [8]  BC 03 3C 04 00 00 00 00
  can0       444   [8]  13 03 FE 07 05 81 00 00
  can0       2AA   [8]  FE 07 00 00 FE 07 B6 07
  can0       29A   [8]  2C 00 2A 00 A6 07 2A 00
  can0       2AA   [8]  FE 07 00 00 FE 07 B4 07
  can0       29A   [8]  2A 00 2A 00 A8 07 28 00
  can0       2AA   [8]  FE 07 00 00 FE 07 B2 07
  can0  18FEEE00   [1]  A2
  can0       29A   [8]  2A 00 28 00 A6 07 26 00
  can0       2AA   [8]  FE 07 00 00 FE 07 B0 07
  can0       19A   [4]  29 0D 00 00
  can0       29A   [8]  28 00 28 00 A8 07 26 00
  can0       1BA   [4]  1D D1 11 11
  can0       2AA   [8]  FE 07 00 00 FE 07 B6 07
  can0       29A   [8]  28 00 28 00 A8 07 26 00
  can0       29B   [8]  08 00 08 00 26 00 A0 07
  can0       29A   [8]  28 00 26 00 A6 07 24 00
  can0       2AA   [8]  FE 07 00 00 FE 07 B4 07
  can0       444   [8]  13 03 FE 07 05 81 00 00
  can0       29A   [8]  26 00 26 00 A0 07 24 00
  can0       2AA   [8]  FE 07 00 00 FE 07 B6 07
  can0       29A   [8]  26 00 24 00 A6 07 22 00
  can0       2AA   [8]  FE 07 00 00 FE 07 AE 07
  can0  18FEE500   [8]  98 0D 00 00 FF FF FF FF
  can0       29B   [8]  08 00 08 00 22 00 9E 07
  can0       1AA   [2]  81 01
  can0       2AA   [8]  FE 07 00 00 FE 07 B0 07
  can0  18FEFC17   [8]  FF 00 FF FF FF FF FF FF
  can0       29A   [8]  24 00 24 00 A2 07 22 00
  can0       2AA   [8]  FE 07 00 00 FE 07 B6 07
  can0       29A   [8]  24 00 22 00 A4 07 20 00
  can0       2AA   [8]  FE 07 00 00 FE 07 B6 07
  can0       2AB   [8]  BC 03 3A 04 00 00 00 00
  can0       2AA   [8]  FE 07 00 00 FE 07 BC 07
  can0       444   [8]  13 03 FE 07 05 81 00 00
  can0       29A   [8]  24 00 22 00 A6 07 20 00
  can0       2AA   [8]  FE 07 00 00 FE 07 B0 07
  can0       29A   [8]  22 00 22 00 A4 07 20 00
  can0       2AA   [8]  FE 07 00 00 FE 07 B2 07
  can0  18FEF700   [8]  FF FF FF FF FF FF 0C 01
  can0       29B   [8]  08 00 08 00 1E 00 A4 07
  can0       2AA   [8]  FE 07 00 00 FE 07 B0 07
  can0       19A   [4]  29 0D 00 00
  can0       1BA   [4]  1D D1 11 11
  can0       29A   [8]  22 00 20 00 A4 07 1E 00
  can0       2AA   [8]  FE 07 00 00 FE 07 B4 07
  can0       29B   [8]  08 00 08 00 1E 00 9C 07
  can0       29A   [8]  22 00 20 00 A4 07 1E 00
  can0       29A   [8]  20 00 20 00 A6 07 1E 00
  can0       2AA   [8]  FE 07 00 00 FE 07 B2 07
  can0       444   [8]  13 03 FE 07 05 81 00 00
  can0       29B   [8]  08 00 08 00 1C 00 A6 07
  can0       2AA   [8]  FE 07 00 00 FE 07 B0 07
  can0       29A   [8]  20 00 20 00 A6 07 1C 00
  can0       2AB   [8]  BA 03 3A 04 00 00 00 00
  can0  18FEEE00   [1]  A2
  can0       29A   [8]  20 00 1E 00 A8 07 1C 00
  can0       1AA   [2]  81 01
  can0       2AA   [8]  FE 07 00 00 FE 07 B6 07
  can0       29A   [8]  1E 00 1E 00 9E 07 1C 00
  can0       2AA   [8]  FE 07 00 00 FE 07 B4 07
  can0       29A   [8]  1E 00 1E 00 A0 07 1C 00
  can0       2AA   [8]  FE 07 00 00 FE 07 B4 07
  can0       2AB   [8]  BC 03 3C 04 00 00 00 00
  can0       444   [8]  13 03 FE 07 05 81 00 00
  can0       2AA   [8]  FE 07 00 00 FE 07 BC 07
  can0       29A   [8]  1E 00 1E 00 A2 07 1C 00
  can0       2AA   [8]  FE 07 00 00 FE 07 B4 07
  can0       29A   [8]  1E 00 1C 00 A6 07 1A 00
  can0       2AB   [8]  BC 03 3C 04 00 00 00 00
  can0  18FEE500   [8]  98 0D 00 00 FF FF FF FF
  can0       29A   [8]  1E 00 1C 00 A4 07 1A 00
  can0       19A   [4]  29 0D 00 00
  can0       1BA   [4]  1D D1 11 11
  can0       29A   [8]  1E 00 1C 00 AA 07 1A 00
  can0       2AA   [8]  FE 07 00 00 FE 07 B0 07
  can0       29A   [8]  1E 00 1C 00 AA 07 1A 00
  can0       29B   [8]  08 00 08 00 1A 00 A2 07
  can0       29A   [8]  1C 00 1C 00 A6 07 1A 00
  can0       444   [8]  13 03 FE 07 05 81 00 00
  can0       2AA   [8]  FE 07 00 00 FE 07 B8 07
  can0       29A   [8]  1C 00 1C 00 A4 07 1A 00
  can0       2AA   [8]  FE 07 00 00 FE 07 B4 07
  can0       29A   [8]  1C 00 1C 00 A8 07 1A 00
  can0       19A   [4]  29 0D 00 20
  can0       1BA   [4]  DD D1 1D DD
  can0       2AA   [8]  FE 07 00 00 FE 07 92 07
  can0  18FEF700   [8]  FF FF FF FF FF FF 07 01
  can0       29A   [8]  88 07 8A 07 8A 07 88 07
  can0       1AA   [2]  81 01
  can0       2AA   [8]  FE 07 00 00 FE 07 9C 07
  can0       29A   [8]  8E 07 90 07 8E 07 8E 07
  can0       2AA   [8]  FE 07 00 00 FE 07 A0 07
  can0       29A   [8]  92 07 92 07 92 07 90 07
  can0       2AA   [8]  FE 07 00 00 FE 07 A0 07
  can0       2AB   [8]  B2 03 3A 04 00 00 00 00
  can0       2AA   [8]  FE 07 00 00 FE 07 A2 07
  can0       444   [8]  13 03 FE 07 05 81 00 00
  can0       29A   [8]  92 07 92 07 92 07 92 07
  can0       2AB   [8]  B4 03 3A 04 00 00 00 00
  can0       29A   [8]  94 07 96 07 94 07 94 07
  can0       2AA   [8]  FE 07 00 00 FE 07 A4 07
  can0  18FEEE00   [1]  A2
  can0       29B   [8]  08 00 08 00 94 07 92 07
  can0       2AB   [8]  B4 03 3A 04 00 00 00 00
  can0       29A   [8]  96 07 98 07 96 07 96 07
  can0       2AB   [8]  B4 03 3C 04 00 00 00 00
  can0       29A   [8]  96 07 98 07 96 07 96 07
  can0       29B   [8]  08 00 08 00 94 07 92 07
  can0       29A   [8]  9A 07 9A 07 96 07 94 07
  can0       444   [8]  13 03 FE 07 05 81 00 00
  can0       2AA   [8]  FE 07 00 00 FE 07 A6 07
  can0       29A   [8]  96 07 96 07 94 07 94 07
  can0       2AA   [8]  FE 07 00 00 FE 07 A4 07
  can0       29A   [8]  96 07 96 07 96 07 94 07
  can0       19A   [4]  29 0D 00 20
  can0       1BA   [4]  DD D1 1D DD
  can0       2AB   [8]  B4 03 3C 04 00 00 00 00
  can0  18FEE500   [8]  98 0D 00 00 FF FF FF FF
  can0       29A   [8]  96 07 98 07 96 07 96 07
  can0       1AA   [2]  81 01
  can0       2AA   [8]  FE 07 00 00 FE 07 A6 07
